Circuit: * Y:\Schrempf\EDT_2\093_Transistor\AP_Stab_BasisRv\AP_Stab_BasisRv.asc

Direct Newton iteration for .op point succeeded.
Semiconductor Device Operating Points:
                        --- Bipolar Transistors ---
Name:       q1
Model:    bc547b
Ib:       2.52e-05
Ic:       7.36e-03
Vbe:      6.93e-01
Vbc:     -4.85e+00
Vce:      5.54e+00
BetaDC:   2.92e+02
Gm:       2.69e-01
Rpi:      1.04e+03
Rx:       1.00e+00
Ro:       9.01e+03
Cbe:      1.88e-10
Cbc:      1.08e-12
Cjs:      0.00e+00
BetaAC:   2.79e+02
Cbx:      6.63e-13
Ft:       2.25e+08



Date: Tue May 28 09:05:05 2019
Total elapsed time: 0.047 seconds.

tnom = 27
temp = 27
method = trap
totiter = 5
traniter = 0
tranpoints = 0
accept = 0
rejected = 0
matrix size = 7
fillins = 0
solver = Normal
Matrix Compiler1: 428 bytes object code size
Matrix Compiler2: 569 bytes object code size

